 (1970-01-01 05:36:04.206865)  can0  704   [1]  7F                        '.'
 (1970-01-01 05:36:04.215653)  can0  701   [1]  7F                        '.'
 (1970-01-01 05:36:04.216128)  can0  707   [1]  7F                        '.'
 (1970-01-01 05:36:04.226967)  can0  703   [1]  05                        '.'
 (1970-01-01 05:36:04.249016)  can0  705   [1]  7F                        '.'
 (1970-01-01 05:36:04.253343)  can0  706   [1]  7F                        '.'
 (1970-01-01 05:36:04.277516)  can0  703   [1]  05                        '.'
 (1970-01-01 05:36:04.306850)  can0  704   [1]  7F                        '.'
 (1970-01-01 05:36:04.315662)  can0  701   [1]  7F                        '.'
 (1970-01-01 05:36:04.316628)  can0  707   [1]  7F                        '.'
 (1970-01-01 05:36:04.328067)  can0  703   [1]  05                        '.'
 (1970-01-01 05:36:04.335344)  can0  604   [8]  40 18 10 03 00 00 00 00   '@.......'
 (1970-01-01 05:36:04.335995)  can0  584   [8]  43 18 10 03 01 00 00 00   'C.......'
 (1970-01-01 05:36:04.338071)  can0  604   [8]  40 18 10 04 00 00 00 00   '@.......'
 (1970-01-01 05:36:04.338783)  can0  584   [8]  43 18 10 04 0E 79 1B 00   'C....y..'
 (1970-01-01 05:36:04.341514)  can0  604   [8]  40 00 10 00 00 00 00 00   '@.......'
 (1970-01-01 05:36:04.341997)  can0  584   [8]  43 00 10 00 91 01 01 00   'C.......'
 (1970-01-01 05:36:04.344238)  can0  604   [8]  40 02 10 00 00 00 00 00   '@.......'
 (1970-01-01 05:36:04.344585)  can0  584   [8]  43 02 10 00 7F 00 00 00   'C.......'
 (1970-01-01 05:36:04.345940)  can0  604   [8]  40 08 10 00 00 00 00 00   '@.......'
 (1970-01-01 05:36:04.346421)  can0  584   [8]  41 08 10 00 21 00 00 00   'A...!...'
 (1970-01-01 05:36:04.346801)  can0  604   [8]  60 00 00 00 00 00 00 00   '`.......'
 (1970-01-01 05:36:04.347464)  can0  584   [8]  00 4D 4B 4C 6F 67 69 63   '.MKLogic'
 (1970-01-01 05:36:04.347948)  can0  604   [8]  70 00 00 00 00 00 00 00   'p.......'
 (1970-01-01 05:36:04.348660)  can0  584   [8]  10 35 30 30 20 44 49 33   '.500 DI3'
 (1970-01-01 05:36:04.348945)  can0  604   [8]  60 00 00 00 00 00 00 00   '`.......'
 (1970-01-01 05:36:04.349286)  can0  584   [8]  00 32 20 35 32 31 00 00   '.2 521..'
 (1970-01-01 05:36:04.349324)  can0  705   [1]  7F                        '.'
 (1970-01-01 05:36:04.349552)  can0  604   [8]  70 00 00 00 00 00 00 00   'p.......'
 (1970-01-01 05:36:04.349871)  can0  584   [8]  10 00 00 00 00 00 00 00   '........'
 (1970-01-01 05:36:04.350235)  can0  604   [8]  60 00 00 00 00 00 00 00   '`.......'
 (1970-01-01 05:36:04.351006)  can0  584   [8]  05 00 00 00 00 00 00 00   '........'
 (1970-01-01 05:36:04.351730)  can0  604   [8]  40 09 10 00 00 00 00 00   '@.......'
 (1970-01-01 05:36:04.352126)  can0  584   [8]  41 09 10 00 11 00 00 00   'A.......'
 (1970-01-01 05:36:04.352727)  can0  604   [8]  60 00 00 00 00 00 00 00   '`.......'
 (1970-01-01 05:36:04.353413)  can0  584   [8]  00 00 00 00 00 00 00 00   '........'
 (1970-01-01 05:36:04.353462)  can0  706   [1]  7F                        '.'
 (1970-01-01 05:36:04.353697)  can0  604   [8]  70 00 00 00 00 00 00 00   'p.......'
 (1970-01-01 05:36:04.354355)  can0  584   [8]  10 00 00 00 00 00 00 00   '........'
 (1970-01-01 05:36:04.354665)  can0  604   [8]  60 00 00 00 00 00 00 00   '`.......'
 (1970-01-01 05:36:04.354959)  can0  584   [8]  09 00 00 00 00 00 00 00   '........'
 (1970-01-01 05:36:04.355765)  can0  604   [8]  40 0A 10 00 00 00 00 00   '@.......'
 (1970-01-01 05:36:04.356044)  can0  584   [8]  41 0A 10 00 11 00 00 00   'A.......'
 (1970-01-01 05:36:04.356317)  can0  604   [8]  60 00 00 00 00 00 00 00   '`.......'
 (1970-01-01 05:36:04.356769)  can0  584   [8]  00 30 2E 31 2E 35 2E 32   '.0.1.5.2'
 (1970-01-01 05:36:04.357103)  can0  604   [8]  70 00 00 00 00 00 00 00   'p.......'
 (1970-01-01 05:36:04.357352)  can0  584   [8]  10 00 00 00 00 00 00 00   '........'
 (1970-01-01 05:36:04.357633)  can0  604   [8]  60 00 00 00 00 00 00 00   '`.......'
 (1970-01-01 05:36:04.358060)  can0  584   [8]  09 00 00 00 00 00 00 00   '........'
 (1970-01-01 05:36:04.358932)  can0  604   [8]  2B 17 10 00 64 00 00 00   '+...d...'
 (1970-01-01 05:36:04.359262)  can0  584   [8]  60 17 10 00 00 00 00 00   '`.......'
 (1970-01-01 05:36:04.359937)  can0  704   [1]  7F                        '.'
 (1970-01-01 05:36:04.360180)  can0  604   [8]  23 16 10 01 00 00 00 00   '#.......'
 (1970-01-01 05:36:04.360559)  can0  584   [8]  60 16 10 01 00 00 00 00   '`.......'
 (1970-01-01 05:36:04.361562)  can0  604   [8]  23 16 10 01 96 00 03 00   '#.......'
 (1970-01-01 05:36:04.362665)  can0  584   [8]  60 16 10 01 00 00 00 00   '`.......'
 (1970-01-01 05:36:04.362710)  can0  084   [8]  05 00 05 00 00 00 00 00   '........'
 (1970-01-01 05:36:04.363813)  can0  605   [8]  40 18 10 03 00 00 00 00   '@.......'
 (1970-01-01 05:36:04.364058)  can0  585   [8]  43 18 10 03 01 00 00 00   'C.......'
 (1970-01-01 05:36:04.364903)  can0  605   [8]  40 18 10 04 00 00 00 00   '@.......'
 (1970-01-01 05:36:04.365204)  can0  585   [8]  43 18 10 04 0F 6A 18 00   'C....j..'
 (1970-01-01 05:36:04.365962)  can0  605   [8]  40 00 10 00 00 00 00 00   '@.......'
 (1970-01-01 05:36:04.366232)  can0  585   [8]  43 00 10 00 91 01 02 00   'C.......'
 (1970-01-01 05:36:04.367210)  can0  605   [8]  40 02 10 00 00 00 00 00   '@.......'
 (1970-01-01 05:36:04.367614)  can0  585   [8]  43 02 10 00 7F 00 00 00   'C.......'
 (1970-01-01 05:36:04.368650)  can0  701   [1]  7F                        '.'
 (1970-01-01 05:36:04.368729)  can0  605   [8]  40 08 10 00 00 00 00 00   '@.......'
 (1970-01-01 05:36:04.368941)  can0  585   [8]  41 08 10 00 14 00 00 00   'A.......'
 (1970-01-01 05:36:04.369567)  can0  605   [8]  60 00 00 00 00 00 00 00   '`.......'
 (1970-01-01 05:36:04.369737)  can0  585   [8]  00 4D 4B 4C 6F 67 69 63   '.MKLogic'
 (1970-01-01 05:36:04.370082)  can0  605   [8]  70 00 00 00 00 00 00 00   'p.......'
 (1970-01-01 05:36:04.370379)  can0  585   [8]  10 35 30 30 20 44 4F 33   '.500 DO3'
 (1970-01-01 05:36:04.371042)  can0  605   [8]  60 00 00 00 00 00 00 00   '`.......'
 (1970-01-01 05:36:04.371250)  can0  081   [8]  00 00 00 00 00 00 00 00   '........'
 (1970-01-01 05:36:04.371370)  can0  585   [8]  03 32 20 35 33 31 00 00   '.2 531..'
 (1970-01-01 05:36:04.372177)  can0  605   [8]  40 09 10 00 00 00 00 00   '@.......'
 (1970-01-01 05:36:04.372362)  can0  585   [8]  41 09 10 00 0B 00 00 00   'A.......'
 (1970-01-01 05:36:04.373984)  can0  605   [8]  60 00 00 00 00 00 00 00   '`.......'
 (1970-01-01 05:36:04.374177)  can0  585   [8]  00 72 65 76 2E 32 2E 31   '.rev.2.1'
 (1970-01-01 05:36:04.374447)  can0  605   [8]  70 00 00 00 00 00 00 00   'p.......'
 (1970-01-01 05:36:04.374709)  can0  585   [8]  17 00 00 00 00 00 00 00   '........'
 (1970-01-01 05:36:04.375595)  can0  605   [8]  40 0A 10 00 00 00 00 00   '@.......'
 (1970-01-01 05:36:04.376006)  can0  585   [8]  41 0A 10 00 0B 00 00 00   'A.......'
 (1970-01-01 05:36:04.376379)  can0  605   [8]  60 00 00 00 00 00 00 00   '`.......'
 (1970-01-01 05:36:04.376622)  can0  585   [8]  00 30 2E 31 2E 31 2E 39   '.0.1.1.9'
 (1970-01-01 05:36:04.376941)  can0  605   [8]  70 00 00 00 00 00 00 00   'p.......'
 (1970-01-01 05:36:04.377471)  can0  585   [8]  17 00 00 00 00 00 00 00   '........'
 (1970-01-01 05:36:04.380132)  can0  605   [8]  2B 17 10 00 64 00 00 00   '+...d...'
 (1970-01-01 05:36:04.380565)  can0  585   [8]  60 17 10 00 00 00 00 00   '`.......'
 (1970-01-01 05:36:04.380695)  can0  705   [1]  7F                        '.'
 (1970-01-01 05:36:04.382188)  can0  605   [8]  23 16 10 01 00 00 00 00   '#.......'
 (1970-01-01 05:36:04.382646)  can0  585   [8]  60 16 10 01 00 00 00 00   '`.......'
 (1970-01-01 05:36:04.385220)  can0  605   [8]  23 16 10 01 96 00 03 00   '#.......'
 (1970-01-01 05:36:04.385639)  can0  585   [8]  60 16 10 01 00 00 00 00   '`.......'
 (1970-01-01 05:36:04.387589)  can0  606   [8]  40 18 10 03 00 00 00 00   '@.......'
 (1970-01-01 05:36:04.388134)  can0  586   [8]  43 18 10 03 01 00 00 00   'C.......'
 (1970-01-01 05:36:04.389147)  can0  703   [1]  05                        '.'
 (1970-01-01 05:36:04.390077)  can0  606   [8]  40 18 10 04 00 00 00 00   '@.......'
 (1970-01-01 05:36:04.390340)  can0  586   [8]  43 18 10 04 5B 77 1B 00   'C...[w..'
 (1970-01-01 05:36:04.391243)  can0  606   [8]  40 00 10 00 00 00 00 00   '@.......'
 (1970-01-01 05:36:04.391675)  can0  586   [8]  43 00 10 00 91 01 04 00   'C.......'
 (1970-01-01 05:36:04.392604)  can0  606   [8]  40 02 10 00 00 00 00 00   '@.......'
 (1970-01-01 05:36:04.393808)  can0  586   [8]  43 02 10 00 7F 00 00 00   'C.......'
 (1970-01-01 05:36:04.394790)  can0  606   [8]  40 08 10 00 00 00 00 00   '@.......'
 (1970-01-01 05:36:04.395007)  can0  586   [8]  41 08 10 00 21 00 00 00   'A...!...'
 (1970-01-01 05:36:04.397164)  can0  606   [8]  60 00 00 00 00 00 00 00   '`.......'
 (1970-01-01 05:36:04.397417)  can0  586   [8]  00 4D 4B 4C 6F 67 69 63   '.MKLogic'
 (1970-01-01 05:36:04.398385)  can0  606   [8]  70 00 00 00 00 00 00 00   'p.......'
 (1970-01-01 05:36:04.398633)  can0  586   [8]  10 35 30 30 20 41 49 31   '.500 AI1'
 (1970-01-01 05:36:04.398963)  can0  606   [8]  60 00 00 00 00 00 00 00   '`.......'
 (1970-01-01 05:36:04.399140)  can0  586   [8]  00 36 20 35 31 33 00 00   '.6 513..'
 (1970-01-01 05:36:04.399401)  can0  606   [8]  70 00 00 00 00 00 00 00   'p.......'
 (1970-01-01 05:36:04.399716)  can0  586   [8]  10 00 00 00 00 00 00 00   '........'
 (1970-01-01 05:36:04.400293)  can0  606   [8]  60 00 00 00 00 00 00 00   '`.......'
 (1970-01-01 05:36:04.401558)  can0  586   [8]  05 00 00 00 00 00 00 00   '........'
 (1970-01-01 05:36:04.402532)  can0  606   [8]  40 09 10 00 00 00 00 00   '@.......'
 (1970-01-01 05:36:04.402836)  can0  586   [8]  41 09 10 00 11 00 00 00   'A.......'
 (1970-01-01 05:36:04.404482)  can0  606   [8]  60 00 00 00 00 00 00 00   '`.......'
 (1970-01-01 05:36:04.405488)  can0  586   [8]  00 FF FF FF FF FF FF FF   '........'
 (1970-01-01 05:36:04.405793)  can0  606   [8]  70 00 00 00 00 00 00 00   'p.......'
 (1970-01-01 05:36:04.406005)  can0  586   [8]  10 FF 00 00 00 00 00 00   '........'
 (1970-01-01 05:36:04.406270)  can0  606   [8]  60 00 00 00 00 00 00 00   '`.......'
 (1970-01-01 05:36:04.407206)  can0  586   [8]  09 00 00 00 00 00 00 00   '........'
 (1970-01-01 05:36:04.408067)  can0  606   [8]  40 0A 10 00 00 00 00 00   '@.......'
 (1970-01-01 05:36:04.408279)  can0  586   [8]  41 0A 10 00 11 00 00 00   'A.......'
 (1970-01-01 05:36:04.408564)  can0  606   [8]  60 00 00 00 00 00 00 00   '`.......'
 (1970-01-01 05:36:04.409960)  can0  586   [8]  00 30 2E 31 2E 33 2E 32   '.0.1.3.2'
 (1970-01-01 05:36:04.410358)  can0  606   [8]  70 00 00 00 00 00 00 00   'p.......'
 (1970-01-01 05:36:04.410680)  can0  586   [8]  10 00 00 00 00 00 00 00   '........'
 (1970-01-01 05:36:04.410951)  can0  606   [8]  60 00 00 00 00 00 00 00   '`.......'
 (1970-01-01 05:36:04.411246)  can0  707   [1]  7F                        '.'
 (1970-01-01 05:36:04.411283)  can0  586   [8]  09 00 00 00 00 00 00 00   '........'
 (1970-01-01 05:36:04.412047)  can0  606   [8]  2B 17 10 00 64 00 00 00   '+...d...'
 (1970-01-01 05:36:04.412326)  can0  586   [8]  60 17 10 00 00 00 00 00   '`.......'
 (1970-01-01 05:36:04.413479)  can0  606   [8]  23 16 10 01 00 00 00 00   '#.......'
 (1970-01-01 05:36:04.413740)  can0  706   [1]  7F                        '.'
 (1970-01-01 05:36:04.413775)  can0  586   [8]  60 16 10 01 00 00 00 00   '`.......'
 (1970-01-01 05:36:04.414437)  can0  606   [8]  23 16 10 01 96 00 03 00   '#.......'
 (1970-01-01 05:36:04.414730)  can0  586   [8]  60 16 10 01 00 00 00 00   '`.......'
 (1970-01-01 05:36:04.414993)  can0  086   [8]  00 00 00 00 00 00 00 00   '........'
 (1970-01-01 05:36:04.415783)  can0  087   [8]  00 00 00 00 00 00 00 00   '........'
 (1970-01-01 05:36:04.438587)  can0  703   [1]  05                        '.'
 (1970-01-01 05:36:04.459534)  can0  704   [1]  7F                        '.'
 (1970-01-01 05:36:04.465045)  can0  604   [8]  21 50 20 01 B0 00 00 00   '!P .....'
 (1970-01-01 05:36:04.465281)  can0  584   [8]  60 50 20 01 00 00 00 00   '`P .....'
 (1970-01-01 05:36:04.465586)  can0  604   [8]  00 00 00 00 00 00 00 00   '........'
 (1970-01-01 05:36:04.465817)  can0  584   [8]  20 00 00 00 00 00 00 00   ' .......'
 (1970-01-01 05:36:04.466093)  can0  604   [8]  10 00 00 00 00 00 00 00   '........'
 (1970-01-01 05:36:04.466207)  can0  000   [2]  01 01                     '..'
 (1970-01-01 05:36:04.466725)  can0  181   [8]  00 F5 01 01 08 00 00 00   '........'
 (1970-01-01 05:36:04.466762)  can0  584   [8]  30 00 00 00 00 00 00 00   '0.......'
 (1970-01-01 05:36:04.467040)  can0  604   [8]  00 00 00 00 00 00 00 00   '........'
 (1970-01-01 05:36:04.467627)  can0  584   [8]  20 00 00 00 00 00 00 00   ' .......'
 (1970-01-01 05:36:04.467969)  can0  604   [8]  10 00 00 00 00 00 00 00   '........'
 (1970-01-01 05:36:04.468654)  can0  701   [1]  05                        '.'
 (1970-01-01 05:36:04.468756)  can0  584   [8]  30 00 00 00 00 00 00 00   '0.......'
 (1970-01-01 05:36:04.472779)  can0  604   [8]  00 00 00 00 00 00 00 00   '........'
 (1970-01-01 05:36:04.473225)  can0  584   [8]  20 00 00 00 00 00 00 00   ' .......'
 (1970-01-01 05:36:04.473536)  can0  604   [8]  10 00 00 00 00 00 00 00   '........'
 (1970-01-01 05:36:04.475113)  can0  584   [8]  30 00 00 00 00 00 00 00   '0.......'
 (1970-01-01 05:36:04.475400)  can0  604   [8]  00 00 00 00 00 00 00 00   '........'
 (1970-01-01 05:36:04.475967)  can0  584   [8]  20 00 00 00 00 00 00 00   ' .......'
 (1970-01-01 05:36:04.476300)  can0  604   [8]  10 00 00 00 00 00 00 00   '........'
 (1970-01-01 05:36:04.477067)  can0  584   [8]  30 00 00 00 00 00 00 00   '0.......'
 (1970-01-01 05:36:04.479040)  can0  604   [8]  00 00 00 00 00 00 00 00   '........'
 (1970-01-01 05:36:04.479513)  can0  584   [8]  20 00 00 00 00 00 00 00   ' .......'
 (1970-01-01 05:36:04.480165)  can0  604   [8]  10 00 00 00 00 00 00 00   '........'
 (1970-01-01 05:36:04.480629)  can0  584   [8]  30 00 00 00 00 00 00 00   '0.......'
 (1970-01-01 05:36:04.480873)  can0  705   [1]  7F                        '.'
 (1970-01-01 05:36:04.481142)  can0  604   [8]  00 00 00 00 00 00 00 00   '........'
 (1970-01-01 05:36:04.481712)  can0  584   [8]  20 00 00 00 00 00 00 00   ' .......'
 (1970-01-01 05:36:04.482010)  can0  604   [8]  10 00 00 00 00 00 00 00   '........'
 (1970-01-01 05:36:04.482436)  can0  584   [8]  30 00 00 00 00 00 00 00   '0.......'
 (1970-01-01 05:36:04.482746)  can0  604   [8]  00 00 00 00 00 00 00 00   '........'
 (1970-01-01 05:36:04.482978)  can0  584   [8]  20 00 00 00 00 00 00 00   ' .......'
 (1970-01-01 05:36:04.483760)  can0  604   [8]  10 00 00 00 00 00 00 00   '........'
 (1970-01-01 05:36:04.483996)  can0  584   [8]  30 00 00 00 00 00 00 00   '0.......'
 (1970-01-01 05:36:04.484283)  can0  604   [8]  00 00 00 00 00 00 00 00   '........'
 (1970-01-01 05:36:04.484895)  can0  584   [8]  20 00 00 00 00 00 00 00   ' .......'
 (1970-01-01 05:36:04.485646)  can0  604   [8]  10 00 00 00 00 00 00 00   '........'
 (1970-01-01 05:36:04.486197)  can0  584   [8]  30 00 00 00 00 00 00 00   '0.......'
 (1970-01-01 05:36:04.486533)  can0  604   [8]  00 00 00 00 00 00 00 00   '........'
 (1970-01-01 05:36:04.487010)  can0  584   [8]  20 00 00 00 00 00 00 00   ' .......'
 (1970-01-01 05:36:04.487353)  can0  604   [8]  10 00 00 00 00 00 00 00   '........'
 (1970-01-01 05:36:04.488019)  can0  584   [8]  30 00 00 00 00 00 00 00   '0.......'
 (1970-01-01 05:36:04.488343)  can0  604   [8]  00 00 00 00 00 00 00 00   '........'
 (1970-01-01 05:36:04.488597)  can0  584   [8]  20 00 00 00 00 00 00 00   ' .......'
 (1970-01-01 05:36:04.489078)  can0  604   [8]  10 00 00 00 00 00 00 00   '........'
 (1970-01-01 05:36:04.489589)  can0  584   [8]  30 00 00 00 00 00 00 00   '0.......'
 (1970-01-01 05:36:04.490255)  can0  604   [8]  00 00 00 00 00 00 00 00   '........'
 (1970-01-01 05:36:04.490682)  can0  584   [8]  20 00 00 00 00 00 00 00   ' .......'
 (1970-01-01 05:36:04.490982)  can0  604   [8]  10 00 00 00 00 00 00 00   '........'
 (1970-01-01 05:36:04.491404)  can0  584   [8]  30 00 00 00 00 00 00 00   '0.......'
 (1970-01-01 05:36:04.491682)  can0  604   [8]  00 00 00 00 00 00 00 FF   '........'
 (1970-01-01 05:36:04.491983)  can0  584   [8]  20 00 00 00 00 00 00 00   ' .......'
 (1970-01-01 05:36:04.492278)  can0  604   [8]  10 FF FF FF 00 00 00 00   '........'
 (1970-01-01 05:36:04.492609)  can0  584   [8]  30 00 00 00 00 00 00 00   '0.......'
 (1970-01-01 05:36:04.492900)  can0  604   [8]  00 00 00 00 00 00 00 00   '........'
 (1970-01-01 05:36:04.493197)  can0  584   [8]  20 00 00 00 00 00 00 00   ' .......'
 (1970-01-01 05:36:04.493713)  can0  604   [8]  1D 00 00 00 00 00 00 00   '........'
 (1970-01-01 05:36:04.494301)  can0  584   [8]  30 00 00 00 00 00 00 00   '0.......'
 (1970-01-01 05:36:04.495334)  can0  605   [8]  21 50 20 01 24 00 00 00   '!P .$...'
 (1970-01-01 05:36:04.495647)  can0  585   [8]  60 50 20 01 00 00 00 00   '`P .....'
 (1970-01-01 05:36:04.496293)  can0  605   [8]  00 00 00 00 00 FF FF FF   '........'
 (1970-01-01 05:36:04.496617)  can0  585   [8]  20 00 00 00 00 00 00 00   ' .......'
 (1970-01-01 05:36:04.496849)  can0  703   [1]  05                        '.'
 (1970-01-01 05:36:04.498358)  can0  605   [8]  10 FF 00 00 00 00 00 00   '........'
 (1970-01-01 05:36:04.498776)  can0  585   [8]  30 00 00 00 00 00 00 00   '0.......'
 (1970-01-01 05:36:04.499157)  can0  605   [8]  00 00 00 00 00 00 00 00   '........'
 (1970-01-01 05:36:04.499362)  can0  585   [8]  20 00 00 00 00 00 00 00   ' .......'
 (1970-01-01 05:36:04.499772)  can0  605   [8]  10 00 00 00 00 00 00 00   '........'
 (1970-01-01 05:36:04.500141)  can0  585   [8]  30 00 00 00 00 00 00 00   '0.......'
 (1970-01-01 05:36:04.500432)  can0  605   [8]  00 00 00 00 00 00 00 00   '........'
 (1970-01-01 05:36:04.500763)  can0  585   [8]  20 00 00 00 00 00 00 00   ' .......'
 (1970-01-01 05:36:04.501044)  can0  605   [8]  1D 00 00 00 00 00 00 00   '........'
 (1970-01-01 05:36:04.501318)  can0  585   [8]  30 00 00 00 00 00 00 00   '0.......'
 (1970-01-01 05:36:04.502168)  can0  606   [8]  21 50 20 01 2C 00 00 00   '!P .,...'
 (1970-01-01 05:36:04.502390)  can0  586   [8]  60 50 20 01 00 00 00 00   '`P .....'
 (1970-01-01 05:36:04.502676)  can0  606   [8]  00 00 00 FF FF 88 88 88   '........'
 (1970-01-01 05:36:04.503019)  can0  586   [8]  20 00 00 00 00 00 00 00   ' .......'
 (1970-01-01 05:36:04.503481)  can0  606   [8]  10 88 88 88 88 88 14 00   '........'
 (1970-01-01 05:36:04.503696)  can0  586   [8]  30 00 00 00 00 00 00 00   '0.......'
 (1970-01-01 05:36:04.503953)  can0  606   [8]  00 14 00 14 00 14 00 14   '........'
 (1970-01-01 05:36:04.504423)  can0  586   [8]  20 00 00 00 00 00 00 00   ' .......'
 (1970-01-01 05:36:04.504728)  can0  606   [8]  10 00 14 00 14 00 14 00   '........'
 (1970-01-01 05:36:04.505452)  can0  586   [8]  30 00 00 00 00 00 00 00   '0.......'
 (1970-01-01 05:36:04.506086)  can0  606   [8]  00 14 00 14 00 14 00 14   '........'
 (1970-01-01 05:36:04.506338)  can0  586   [8]  20 00 00 00 00 00 00 00   ' .......'
 (1970-01-01 05:36:04.506786)  can0  606   [8]  10 00 14 00 14 00 14 00   '........'
 (1970-01-01 05:36:04.507136)  can0  586   [8]  30 00 00 00 00 00 00 00   '0.......'
 (1970-01-01 05:36:04.507440)  can0  606   [8]  0B 14 00 00 00 00 00 00   '........'
 (1970-01-01 05:36:04.507793)  can0  586   [8]  20 00 00 00 00 00 00 00   ' .......'
 (1970-01-01 05:36:04.511163)  can0  707   [1]  7F                        '.'
 (1970-01-01 05:36:04.513580)  can0  706   [1]  7F                        '.'
 (1970-01-01 05:36:04.545404)  can0  703   [1]  05                        '.'
 (1970-01-01 05:36:04.559734)  can0  704   [1]  7F                        '.'
 (1970-01-01 05:36:04.568627)  can0  701   [1]  05                        '.'
 (1970-01-01 05:36:04.580887)  can0  705   [1]  7F                        '.'
 (1970-01-01 05:36:04.583775)  can0  000   [2]  01 04                     '..'
 (1970-01-01 05:36:04.584348)  can0  000   [2]  01 05                     '..'
 (1970-01-01 05:36:04.584631)  can0  184   [8]  00 00 00 00 00 00 00 00   '........'
 (1970-01-01 05:36:04.584731)  can0  284   [8]  00 00 00 00 00 00 00 00   '........'
 (1970-01-01 05:36:04.584862)  can0  384   [8]  00 00 00 00 00 00 00 00   '........'
 (1970-01-01 05:36:04.584906)  can0  000   [2]  01 06                     '..'
 (1970-01-01 05:36:04.585320)  can0  484   [8]  00 00 00 00 00 00 00 00   '........'
 (1970-01-01 05:36:04.585829)  can0  186   [8]  82 17 05 00 05 00 05 00   '........'
 (1970-01-01 05:36:04.585913)  can0  286   [8]  05 00 05 00 05 00 05 00   '........'
 (1970-01-01 05:36:04.588559)  can0  386   [8]  05 00 05 00 06 00 06 00   '........'
 (1970-01-01 05:36:04.588640)  can0  486   [8]  06 00 06 00 06 00 05 00   '........'
 (1970-01-01 05:36:04.603124)  can0  703   [1]  05                        '.'
 (1970-01-01 05:36:04.610578)  can0  707   [1]  7F                        '.'
 (1970-01-01 05:36:04.613372)  can0  706   [1]  05                        '.'
 (1970-01-01 05:36:04.653582)  can0  703   [1]  05                        '.'
 (1970-01-01 05:36:04.659643)  can0  704   [1]  05                        '.'
 (1970-01-01 05:36:04.668622)  can0  701   [1]  05                        '.'
 (1970-01-01 05:36:04.680751)  can0  705   [1]  05                        '.'
 (1970-01-01 05:36:04.698073)  can0  204   [8]  00 00 00 00 00 00 00 00   '........'
 (1970-01-01 05:36:04.698533)  can0  205   [8]  01 00 00 00 00 00 00 00   '........'
 (1970-01-01 05:36:04.698692)  can0  305   [8]  00 00 00 00 00 00 00 00   '........'
 (1970-01-01 05:36:04.704031)  can0  703   [1]  05                        '.'
 (1970-01-01 05:36:04.710752)  can0  707   [1]  7F                        '.'
 (1970-01-01 05:36:04.713396)  can0  706   [1]  05                        '.'
 (1970-01-01 05:36:04.754319)  can0  703   [1]  05                        '.'
 (1970-01-01 05:36:04.759654)  can0  704   [1]  05                        '.'
 (1970-01-01 05:36:04.768640)  can0  701   [1]  05                        '.'
 (1970-01-01 05:36:04.780850)  can0  705   [1]  05                        '.'
 (1970-01-01 05:36:04.804599)  can0  703   [1]  05                        '.'
 (1970-01-01 05:36:04.808963)  can0  000   [2]  01 07                     '..'
 (1970-01-01 05:36:04.811363)  can0  707   [1]  05                        '.'
 (1970-01-01 05:36:04.811463)  can0  1E0007F0   [8]  FF FF FF FF FF FF FF FF   '........'
 (1970-01-01 05:36:04.811611)  can0  1E0007F1   [8]  FF FF FF FF FF FF FF FF   '........'
 (1970-01-01 05:36:04.811757)  can0  1E0007F2   [8]  FF FF FF FF FF FF FF FF   '........'
 (1970-01-01 05:36:04.812061)  can0  1E0007F3   [8]  FF FF FF FF FF FF FF FF   '........'
 (1970-01-01 05:36:04.812204)  can0  1E0007F4   [8]  FF FF FF FF FF FF FF FF   '........'
 (1970-01-01 05:36:04.812350)  can0  1E0007F5   [8]  FF FF FF FF FF FF FF FF   '........'
 (1970-01-01 05:36:04.813282)  can0  1E0007F6   [8]  FF FF FF FF FF FF FF FF   '........'
 (1970-01-01 05:36:04.813338)  can0  1E0007F7   [8]  FF FF FF FF FF FF FF FF   '........'
 (1970-01-01 05:36:04.813419)  can0       706   [1]  05                        '.'
 (1970-01-01 05:36:04.813539)  can0  1E0007F8   [8]  FF FF FF FF FF FF FF FF   '........'
 (1970-01-01 05:36:04.814376)  can0  1E0007F9   [8]  FF FF FF FF FF FF FF FF   '........'
 (1970-01-01 05:36:04.814514)  can0  1E0007FA   [8]  FF FF FF FF FF FF FF FF   '........'
 (1970-01-01 05:36:04.814656)  can0  1E0007FB   [8]  FF FF FF FF FF FF FF FF   '........'
 (1970-01-01 05:36:04.815596)  can0  1E0007FC   [8]  FF FF FF FF FF FF FF FF   '........'
 (1970-01-01 05:36:04.815697)  can0  1E0007FD   [8]  FF FF FF FF FF FF FF FF   '........'
 (1970-01-01 05:36:04.815827)  can0  1E0007FE   [8]  FF FF FF FF FF FF FF FF   '........'
 (1970-01-01 05:36:04.816757)  can0  1E0007FF   [8]  FF FF FF FF FF FF FF FF   '........'
 (1970-01-01 05:36:04.816892)  can0  1E0007F0   [8]  FF FF FF 15 FF FF FF FF   '........'
 (1970-01-01 05:36:04.817981)  can0  1E0007F0   [8]  FF FF FF 15 15 FF FF FF   '........'
 (1970-01-01 05:36:04.819110)  can0  1E0007F0   [8]  FF FF FF 15 15 15 FF FF   '........'
 (1970-01-01 05:36:04.820297)  can0  1E0007F0   [8]  FF FF FF 15 15 15 15 FF   '........'
 (1970-01-01 05:36:04.821412)  can0  1E0007F0   [8]  FF FF FF 15 15 15 15 15   '........'
 (1970-01-01 05:36:04.821536)  can0  1E0007F9   [8]  15 FF FF FF FF FF FF FF   '........'
 (1970-01-01 05:36:04.821648)  can0  1E010700   [8]  00 00 00 00 00 00 00 00   '........'
 (1970-01-01 05:36:04.821850)  can0  1E010701   [8]  00 00 00 00 00 00 00 00   '........'
 (1970-01-01 05:36:04.822337)  can0  1E010702   [8]  00 00 00 00 00 00 00 00   '........'
 (1970-01-01 05:36:04.822523)  can0  1E010703   [8]  00 00 00 00 00 00 00 00   '........'
 (1970-01-01 05:36:04.822766)  can0  1E010704   [8]  00 00 00 00 00 00 00 00   '........'
 (1970-01-01 05:36:04.823368)  can0  1E0007F1   [8]  15 FF FF FF FF FF FF FF   '........'
 (1970-01-01 05:36:04.823394)  can0  1E0007F9   [8]  15 15 FF FF FF FF FF FF   '........'
 (1970-01-01 05:36:04.824412)  can0  1E0007F1   [8]  15 15 FF FF FF FF FF FF   '........'
 (1970-01-01 05:36:04.823460)  can0  1E010705   [8]  00 00 00 00 00 00 00 00   '........'
 (1970-01-01 05:36:04.824558)  can0  1E010706   [8]  00 00 00 00 00 00 00 00   '........'
 (1970-01-01 05:36:04.824768)  can0  1E010707   [8]  00 00 00 00 00 00 00 00   '........'
 (1970-01-01 05:36:04.824966)  can0  1E010708   [8]  00 00 00 00 00 00 00 00   '........'
 (1970-01-01 05:36:04.825140)  can0  1E010709   [8]  00 00 00 00 00 00 00 00   '........'
 (1970-01-01 05:36:04.825308)  can0  1E01070A   [8]  00 00 00 00 00 00 00 00   '........'
 (1970-01-01 05:36:04.825510)  can0  1E01070B   [8]  00 00 00 00 00 00 00 00   '........'
 (1970-01-01 05:36:04.825683)  can0  1E0007F1   [8]  15 15 15 FF FF FF FF FF   '........'
 (1970-01-01 05:36:04.825793)  can0  1E01070C   [8]  00 00 00 00 00 00 00 00   '........'
 (1970-01-01 05:36:04.825978)  can0  1E01070D   [8]  00 00 00 00 00 00 00 00   '........'
 (1970-01-01 05:36:04.826152)  can0  1E01070E   [8]  00 00 00 00 00 00 00 00   '........'
 (1970-01-01 05:36:04.826329)  can0  1E01070F   [8]  00 00 00 00 00 00 00 00   '........'
 (1970-01-01 05:36:04.826610)  can0  1E010710   [8]  00 00 00 00 00 00 00 00   '........'
 (1970-01-01 05:36:04.826796)  can0  1E010711   [8]  00 00 00 00 00 00 00 00   '........'
 (1970-01-01 05:36:04.826974)  can0  1E010712   [8]  00 00 00 00 00 00 00 00   '........'
 (1970-01-01 05:36:04.827184)  can0  1E0007F1   [8]  15 15 15 15 FF FF FF FF   '........'
 (1970-01-01 05:36:04.827278)  can0  1E010713   [8]  00 00 00 00 00 00 00 00   '........'
 (1970-01-01 05:36:04.827473)  can0  1E010714   [8]  00 00 00 00 00 00 00 00   '........'
 (1970-01-01 05:36:04.827647)  can0  1E010715   [8]  00 00 00 00 00 00 00 00   '........'
 (1970-01-01 05:36:04.827836)  can0  1E010716   [8]  00 00 00 00 00 00 00 00   '........'
 (1970-01-01 05:36:04.828001)  can0  1E010717   [8]  00 00 00 00 00 00 00 00   '........'
 (1970-01-01 05:36:04.828176)  can0  1E010718   [8]  00 00 00 00 00 00 00 00   '........'
 (1970-01-01 05:36:04.828355)  can0  1E010719   [8]  00 00 00 00 00 00 00 00   '........'
 (1970-01-01 05:36:04.828533)  can0  1E01071A   [8]  00 00 00 00 00 00 00 00   '........'
 (1970-01-01 05:36:04.828784)  can0  1E0007F1   [8]  15 15 15 15 15 FF FF FF   '........'
 (1970-01-01 05:36:04.828874)  can0  1E01071B   [8]  00 00 00 00 00 00 00 00   '........'
 (1970-01-01 05:36:04.829074)  can0  1E01071C   [8]  00 00 00 00 00 00 00 00   '........'
 (1970-01-01 05:36:04.829251)  can0  1E01071D   [8]  00 00 00 00 00 00 00 00   '........'
 (1970-01-01 05:36:04.829428)  can0  1E01071E   [8]  00 00 00 00 00 00 00 00   '........'
 (1970-01-01 05:36:04.829601)  can0  1E01071F   [8]  00 00 00 00 00 00 00 00   '........'
 (1970-01-01 05:36:04.829777)  can0  1E010720   [8]  00 00 00 00 00 00 00 00   '........'
 (1970-01-01 05:36:04.830072)  can0  1E010721   [8]  00 00 00 00 00 00 00 00   '........'
 (1970-01-01 05:36:04.830246)  can0  1E010722   [8]  00 00 00 00 00 00 00 00   '........'
 (1970-01-01 05:36:04.830423)  can0  1E0007F1   [8]  15 15 15 15 15 15 FF FF   '........'
 (1970-01-01 05:36:04.830562)  can0  1E0007F9   [8]  15 15 FF FF FF FF 15 FF   '........'
 (1970-01-01 05:36:04.830675)  can0  1E010723   [8]  00 00 00 00 00 00 00 00   '........'
 (1970-01-01 05:36:04.830845)  can0  1E010724   [8]  00 00 00 00 00 00 00 00   '........'
 (1970-01-01 05:36:04.831034)  can0  1E010725   [8]  00 00 00 00 00 00 00 00   '........'
 (1970-01-01 05:36:04.831209)  can0  1E010726   [8]  00 00 00 00 00 00 00 00   '........'
 (1970-01-01 05:36:04.831397)  can0  1E010727   [8]  00 00 00 00 00 00 00 00   '........'
 (1970-01-01 05:36:04.831575)  can0  1E010728   [8]  00 00 00 00 00 00 00 00   '........'
 (1970-01-01 05:36:04.831749)  can0  1E010729   [8]  00 00 00 00 00 00 00 00   '........'
 (1970-01-01 05:36:04.831933)  can0  1E01072A   [8]  00 00 00 00 00 00 00 00   '........'
 (1970-01-01 05:36:04.832139)  can0  1E0007F1   [8]  15 15 15 15 15 15 15 FF   '........'
 (1970-01-01 05:36:04.832326)  can0  1E0007F9   [8]  15 15 FF FF FF FF 15 15   '........'
 (1970-01-01 05:36:04.832360)  can0  1E01072B   [8]  00 00 00 00 00 00 00 00   '........'
 (1970-01-01 05:36:04.832559)  can0  1E01072C   [8]  00 00 00 00 00 00 00 00   '........'
 (1970-01-01 05:36:04.832754)  can0  1E01072D   [8]  00 00 00 00 00 00 00 00   '........'
 (1970-01-01 05:36:04.832928)  can0  1E01072E   [8]  00 00 00 00 00 00 00 00   '........'
 (1970-01-01 05:36:04.833123)  can0  1E01072F   [8]  00 00 00 00 00 00 00 00   '........'
 (1970-01-01 05:36:04.833387)  can0  1E010730   [8]  00 00 00 00 00 00 00 00   '........'
 (1970-01-01 05:36:04.833563)  can0  1E010731   [8]  00 00 00 00 00 00 00 00   '........'
 (1970-01-01 05:36:04.833767)  can0  1E0007F1   [8]  15 15 15 15 15 15 15 15   '........'
 (1970-01-01 05:36:04.834003)  can0  1E0007FA   [8]  15 FF FF FF FF FF FF FF   '........'
 (1970-01-01 05:36:04.833990)  can0  1E010732   [8]  00 00 00 00 00 00 00 00   '........'
 (1970-01-01 05:36:04.834189)  can0  1E010733   [8]  00 00 00 00 00 00 00 00   '........'
 (1970-01-01 05:36:04.834365)  can0  1E010734   [8]  00 00 00 00 00 00 00 00   '........'
 (1970-01-01 05:36:04.834541)  can0  1E010735   [8]  00 00 00 00 00 00 00 00   '........'
 (1970-01-01 05:36:04.834733)  can0  1E010736   [8]  00 00 00 00 00 00 00 00   '........'
 (1970-01-01 05:36:04.834907)  can0  1E010737   [8]  00 00 00 00 00 00 00 00   '........'
 (1970-01-01 05:36:04.835082)  can0  1E010738   [8]  00 00 00 00 00 00 00 00   '........'
 (1970-01-01 05:36:04.835256)  can0  1E010739   [8]  00 00 00 00 00 00 00 00   '........'
 (1970-01-01 05:36:04.835519)  can0  1E0007F2   [8]  15 FF FF FF FF FF FF FF   '........'
 (1970-01-01 05:36:04.835591)  can0  1E0007FA   [8]  15 15 FF FF FF FF FF FF   '........'
 (1970-01-01 05:36:04.835703)  can0  1E01073A   [8]  00 00 00 00 00 00 00 00   '........'
 (1970-01-01 05:36:04.835954)  can0  1E01073B   [8]  00 00 00 00 00 00 00 00   '........'
 (1970-01-01 05:36:04.836159)  can0  1E01073C   [8]  00 00 00 00 00 00 00 00   '........'
 (1970-01-01 05:36:04.836524)  can0  1E01073D   [8]  00 00 00 00 00 00 00 00   '........'
 (1970-01-01 05:36:04.836747)  can0  1E01073E   [8]  00 00 00 00 00 00 00 00   '........'
 (1970-01-01 05:36:04.837147)  can0  1E0007F2   [8]  15 15 FF FF FF FF FF FF   '........'
 (1970-01-01 05:36:04.837227)  can0  1E0007FA   [8]  15 15 15 FF FF FF FF FF   '........'
 (1970-01-01 05:36:04.837176)  can0  1E01073F   [8]  00 00 00 00 00 00 00 00   '........'
 (1970-01-01 05:36:04.837445)  can0  1E010740   [8]  00 00 00 00 00 00 00 00   '........'
 (1970-01-01 05:36:04.837641)  can0  1E010741   [8]  00 00 00 00 00 00 00 00   '........'
 (1970-01-01 05:36:04.837835)  can0  1E010742   [8]  00 00 00 00 00 00 00 00   '........'
 (1970-01-01 05:36:04.838032)  can0  1E010743   [8]  00 00 00 00 00 00 00 00   '........'
 (1970-01-01 05:36:04.838230)  can0  1E010744   [8]  00 00 00 00 00 00 00 00   '........'
 (1970-01-01 05:36:04.838430)  can0  1E010745   [8]  00 00 00 00 00 00 00 00   '........'
 (1970-01-01 05:36:04.838814)  can0  1E0007F2   [8]  15 15 15 FF FF FF FF FF   '........'
 (1970-01-01 05:36:04.838900)  can0  1E0007FA   [8]  15 15 15 15 FF FF FF FF   '........'
 (1970-01-01 05:36:04.838880)  can0  1E010746   [8]  00 00 00 00 00 00 00 00   '........'
 (1970-01-01 05:36:04.839356)  can0  1E010747   [8]  00 00 00 00 00 00 00 00   '........'
 (1970-01-01 05:36:04.839550)  can0  1E010748   [8]  00 00 00 00 00 00 00 00   '........'
 (1970-01-01 05:36:04.839749)  can0  1E010749   [8]  00 00 00 00 00 00 00 00   '........'
 (1970-01-01 05:36:04.839950)  can0  1E01074A   [8]  00 00 00 00 00 00 00 00   '........'
 (1970-01-01 05:36:04.840234)  can0  1E0007F2   [8]  15 15 15 15 FF FF FF FF   '........'
 (1970-01-01 05:36:04.840272)  can0  1E0007FA   [8]  15 15 15 15 15 FF FF FF   '........'
 (1970-01-01 05:36:04.840375)  can0  1E01074B   [8]  00 00 00 00 00 00 00 00   '........'
 (1970-01-01 05:36:04.840577)  can0  1E01074C   [8]  00 00 00 00 00 00 00 00   '........'
 (1970-01-01 05:36:04.840771)  can0  1E01074D   [8]  00 00 00 00 00 00 00 00   '........'
 (1970-01-01 05:36:04.840978)  can0  1E01074E   [8]  00 00 00 00 00 00 00 00   '........'
 (1970-01-01 05:36:04.841222)  can0  1E01074F   [8]  00 00 00 00 00 00 00 00   '........'
 (1970-01-01 05:36:04.841649)  can0  1E0007F2   [8]  15 15 15 15 15 FF FF FF   '........'
 (1970-01-01 05:36:04.841727)  can0  1E0007FA   [8]  15 15 15 15 15 15 FF FF   '........'
 (1970-01-01 05:36:04.841846)  can0  1E010750   [8]  00 00 00 00 00 00 00 00   '........'
 (1970-01-01 05:36:04.842074)  can0  1E010751   [8]  00 00 00 00 00 00 00 00   '........'
 (1970-01-01 05:36:04.842362)  can0  1E010752   [8]  00 00 00 00 00 00 00 00   '........'
 (1970-01-01 05:36:04.842566)  can0  1E010753   [8]  00 00 00 00 00 00 00 00   '........'
 (1970-01-01 05:36:04.842766)  can0  1E010754   [8]  00 00 00 00 00 00 00 00   '........'
 (1970-01-01 05:36:04.842966)  can0  1E010755   [8]  00 00 00 00 00 00 00 00   '........'
 (1970-01-01 05:36:04.843217)  can0  1E0007F2   [8]  15 15 15 15 15 15 FF FF   '........'
 (1970-01-01 05:36:04.843339)  can0  1E0007FA   [8]  15 15 15 15 15 15 15 FF   '........'
 (1970-01-01 05:36:04.843389)  can0  1E010756   [8]  00 00 00 00 00 00 00 00   '........'
 (1970-01-01 05:36:04.843819)  can0  1E010757   [8]  00 00 00 00 00 00 00 00   '........'
 (1970-01-01 05:36:04.844018)  can0  1E010758   [8]  00 00 00 00 00 00 00 00   '........'
 (1970-01-01 05:36:04.844218)  can0  1E010759   [8]  00 00 00 00 00 00 00 00   '........'
 (1970-01-01 05:36:04.844415)  can0  1E01075A   [8]  00 00 00 00 00 00 00 00   '........'
 (1970-01-01 05:36:04.844611)  can0  1E01075B   [8]  00 00 00 00 00 00 00 00   '........'
 (1970-01-01 05:36:04.844914)  can0  1E0007F2   [8]  15 15 15 15 15 15 15 FF   '........'
 (1970-01-01 05:36:04.844956)  can0  1E0007FA   [8]  15 15 15 15 15 15 15 15   '........'
 (1970-01-01 05:36:04.845066)  can0  1E01075C   [8]  00 00 00 00 00 00 00 00   '........'
 (1970-01-01 05:36:04.845326)  can0  1E01075D   [8]  00 00 00 00 00 00 00 00   '........'
 (1970-01-01 05:36:04.845579)  can0  1E01075E   [8]  00 00 00 00 00 00 00 00   '........'
 (1970-01-01 05:36:04.845780)  can0  1E01075F   [8]  00 00 00 00 00 00 00 00   '........'
 (1970-01-01 05:36:04.845977)  can0  1E010760   [8]  00 00 00 00 00 00 00 00   '........'
 (1970-01-01 05:36:04.846208)  can0  1E010761   [8]  00 00 00 00 00 00 00 00   '........'
 (1970-01-01 05:36:04.846385)  can0  1E0007F2   [8]  15 15 15 15 15 15 15 15   '........'
 (1970-01-01 05:36:04.846554)  can0  1E0007FB   [8]  15 FF FF FF FF FF FF FF   '........'
 (1970-01-01 05:36:04.846603)  can0  1E010762   [8]  00 00 00 00 00 00 00 00   '........'
 (1970-01-01 05:36:04.846886)  can0  1E010763   [8]  00 00 00 00 00 00 00 00   '........'
 (1970-01-01 05:36:04.847085)  can0  1E010764   [8]  00 00 00 00 00 00 00 00   '........'
 (1970-01-01 05:36:04.847471)  can0  1E010765   [8]  00 00 00 00 00 00 00 00   '........'
 (1970-01-01 05:36:04.847656)  can0  1E010766   [8]  00 00 00 00 00 00 00 00   '........'
 (1970-01-01 05:36:04.847857)  can0  1E0007F3   [8]  15 FF FF FF FF FF FF FF   '........'
 (1970-01-01 05:36:04.847990)  can0  1E0007FB   [8]  15 15 FF FF FF FF FF FF   '........'
 (1970-01-01 05:36:04.848084)  can0  1E010767   [8]  00 00 00 00 00 00 00 00   '........'
 (1970-01-01 05:36:04.848313)  can0  1E010768   [8]  00 00 00 00 00 00 00 00   '........'
 (1970-01-01 05:36:04.848520)  can0  1E010769   [8]  00 00 00 00 00 00 00 00   '........'
 (1970-01-01 05:36:04.848697)  can0  1E01076A   [8]  00 00 00 00 00 00 00 00   '........'
 (1970-01-01 05:36:04.848903)  can0  1E01076B   [8]  00 00 00 00 00 00 00 00   '........'
 (1970-01-01 05:36:04.849200)  can0  1E01076C   [8]  00 00 00 00 00 00 00 00   '........'
 (1970-01-01 05:36:04.849354)  can0  1E0007F3   [8]  15 15 FF FF FF FF FF FF   '........'
 (1970-01-01 05:36:04.849492)  can0  1E0007FB   [8]  15 15 15 FF FF FF FF FF   '........'
 (1970-01-01 05:36:04.849623)  can0  1E01076D   [8]  00 00 00 00 00 00 00 00   '........'
 (1970-01-01 05:36:04.849858)  can0  1E01076E   [8]  00 00 00 00 00 00 00 00   '........'
 (1970-01-01 05:36:04.850139)  can0  1E01076F   [8]  00 00 00 00 00 00 00 00   '........'
 (1970-01-01 05:36:04.850335)  can0  1E010770   [8]  00 00 00 00 00 00 00 00   '........'
 (1970-01-01 05:36:04.850533)  can0  1E010771   [8]  00 00 00 00 00 00 00 00   '........'
 (1970-01-01 05:36:04.850756)  can0  1E010772   [8]  00 00 00 00 00 00 00 00   '........'
 (1970-01-01 05:36:04.850975)  can0  1E0007F3   [8]  15 15 15 FF FF FF FF FF   '........'
 (1970-01-01 05:36:04.851123)  can0  1E0007FB   [8]  15 15 15 15 FF FF FF FF   '........'
 (1970-01-01 05:36:04.851208)  can0  1E010773   [8]  00 00 00 00 00 00 00 00   '........'
 (1970-01-01 05:36:04.851422)  can0  1E010774   [8]  00 00 00 00 00 00 00 00   '........'
 (1970-01-01 05:36:04.851637)  can0  1E010775   [8]  00 00 00 00 00 00 00 00   '........'
 (1970-01-01 05:36:04.851814)  can0  1E010776   [8]  00 00 00 00 00 00 00 00   '........'
 (1970-01-01 05:36:04.852061)  can0  1E010777   [8]  00 00 00 00 00 00 00 00   '........'
 (1970-01-01 05:36:04.852238)  can0  1E010778   [8]  00 00 00 00 00 00 00 00   '........'
 (1970-01-01 05:36:04.852424)  can0  1E010779   [8]  00 00 00 00 00 00 00 00   '........'
 (1970-01-01 05:36:04.852802)  can0  1E0007F3   [8]  15 15 15 15 FF FF FF FF   '........'
 (1970-01-01 05:36:04.852903)  can0  1E0007FB   [8]  15 15 15 15 15 FF FF FF   '........'
 (1970-01-01 05:36:04.852847)  can0  1E01077A   [8]  00 00 00 00 00 00 00 00   '........'
 (1970-01-01 05:36:04.853115)  can0  1E01077B   [8]  00 00 00 00 00 00 00 00   '........'
 (1970-01-01 05:36:04.853390)  can0  1E01077C   [8]  00 00 00 00 00 00 00 00   '........'
 (1970-01-01 05:36:04.853631)  can0  1E01077D   [8]  00 00 00 00 00 00 00 00   '........'
 (1970-01-01 05:36:04.853838)  can0  1E01077E   [8]  00 00 00 00 00 00 00 00   '........'
 (1970-01-01 05:36:04.854040)  can0  1E01077F   [8]  00 00 00 00 00 00 00 00   '........'
 (1970-01-01 05:36:04.854235)  can0  1E0007F3   [8]  15 15 15 15 15 FF FF FF   '........'
 (1970-01-01 05:36:04.854393)  can0  1E0007FB   [8]  15 15 15 15 15 15 FF FF   '........'
 (1970-01-01 05:36:04.854463)  can0  1E010780   [8]  00 00 00 00 00 00 00 00   '........'
 (1970-01-01 05:36:04.854751)  can0  1E010781   [8]  00 00 00 00 00 00 00 00   '........'
 (1970-01-01 05:36:04.854989)  can0  1E010782   [8]  00 00 00 00 00 00 00 00   '........'
 (1970-01-01 05:36:04.855209)  can0  1E010783   [8]  00 00 00 00 00 00 00 00   '........'
 (1970-01-01 05:36:04.855409)  can0  1E010784   [8]  00 00 00 00 00 00 00 00   '........'
 (1970-01-01 05:36:04.855600)  can0  1E010785   [8]  00 00 00 00 00 00 00 00   '........'
 (1970-01-01 05:36:04.856188)  can0  1E0007F3   [8]  15 15 15 15 15 15 FF FF   '........'
 (1970-01-01 05:36:04.856219)  can0  1E0007FB   [8]  15 15 15 15 15 15 15 FF   '........'
 (1970-01-01 05:36:04.856094)  can0  1E010786   [8]  00 00 00 00 00 00 00 00   '........'
 (1970-01-01 05:36:04.856457)  can0  1E010787   [8]  00 00 00 00 00 00 00 00   '........'
 (1970-01-01 05:36:04.856792)  can0  1E010788   [8]  00 00 00 00 00 00 00 00   '........'
 (1970-01-01 05:36:04.857023)  can0  1E010789   [8]  00 00 00 00 00 00 00 00   '........'
 (1970-01-01 05:36:04.857211)  can0  1E0007F3   [8]  15 15 15 15 15 15 15 FF   '........'
 (1970-01-01 05:36:04.857445)  can0  1E0007FB   [8]  15 15 15 15 15 15 15 15   '........'
 (1970-01-01 05:36:04.857432)  can0  1E01078A   [8]  00 00 00 00 00 00 00 00   '........'
 (1970-01-01 05:36:04.857667)  can0  1E01078B   [8]  00 00 00 00 00 00 00 00   '........'
 (1970-01-01 05:36:04.857864)  can0  1E01078C   [8]  00 00 00 00 00 00 00 00   '........'
 (1970-01-01 05:36:04.858064)  can0  1E01078D   [8]  00 00 00 00 00 00 00 00   '........'
 (1970-01-01 05:36:04.858266)  can0  1E01078E   [8]  00 00 00 00 00 00 00 00   '........'
 (1970-01-01 05:36:04.858506)  can0  1E01078F   [8]  00 00 00 00 00 00 00 00   '........'
 (1970-01-01 05:36:04.858758)  can0  1E0007F3   [8]  15 15 15 15 15 15 15 15   '........'
 (1970-01-01 05:36:04.858925)  can0  1E0007FC   [8]  15 FF FF FF FF FF FF FF   '........'
 (1970-01-01 05:36:04.859038)  can0  1E010790   [8]  00 00 00 00 00 00 00 00   '........'
 (1970-01-01 05:36:04.859361)  can0  1E010791   [8]  00 00 00 00 00 00 00 00   '........'
 (1970-01-01 05:36:04.859561)  can0  1E010792   [8]  00 00 00 00 00 00 00 00   '........'
 (1970-01-01 05:36:04.859699)  can0       704   [1]  05                        '.'
 (1970-01-01 05:36:04.859767)  can0  1E010793   [8]  00 00 00 00 00 00 00 00   '........'
 (1970-01-01 05:36:04.860096)  can0  1E010794   [8]  00 00 00 00 00 00 00 00   '........'
 (1970-01-01 05:36:04.860279)  can0  1E0007F4   [8]  15 FF FF FF FF FF FF FF   '........'
 (1970-01-01 05:36:04.860421)  can0  1E0007FC   [8]  15 15 FF FF FF FF FF FF   '........'
 (1970-01-01 05:36:04.860536)  can0  1E010795   [8]  00 00 00 00 00 00 00 00   '........'
 (1970-01-01 05:36:04.860740)  can0  1E010796   [8]  00 00 00 00 00 00 00 00   '........'
 (1970-01-01 05:36:04.860976)  can0  1E010797   [8]  00 00 00 00 00 00 00 00   '........'
 (1970-01-01 05:36:04.861179)  can0  1E010798   [8]  00 00 00 00 00 00 00 00   '........'
 (1970-01-01 05:36:04.861420)  can0  1E010799   [8]  00 00 00 00 00 00 00 00   '........'
 (1970-01-01 05:36:04.861673)  can0  1E01079A   [8]  00 00 00 00 00 00 00 00   '........'
 (1970-01-01 05:36:04.861881)  can0  1E0007F4   [8]  15 15 FF FF FF FF FF FF   '........'
 (1970-01-01 05:36:04.862041)  can0  1E0007FC   [8]  15 15 15 FF FF FF FF FF   '........'
 (1970-01-01 05:36:04.862131)  can0  1E01079B   [8]  00 00 00 00 00 00 00 00   '........'
 (1970-01-01 05:36:04.862328)  can0  1E01079C   [8]  00 00 00 00 00 00 00 00   '........'
 (1970-01-01 05:36:04.862520)  can0  1E01079D   [8]  00 00 00 00 00 00 00 00   '........'
 (1970-01-01 05:36:04.862698)  can0  1E01079E   [8]  00 00 00 00 00 00 00 00   '........'
 (1970-01-01 05:36:04.862876)  can0  1E01079F   [8]  00 00 00 00 00 00 00 00   '........'
 (1970-01-01 05:36:04.863057)  can0  1E0107A0   [8]  00 00 00 00 00 00 00 00   '........'
 (1970-01-01 05:36:04.863626)  can0  1E0007F4   [8]  15 15 15 FF FF FF FF FF   '........'
 (1970-01-01 05:36:04.863670)  can0  1E0007FC   [8]  15 15 15 15 FF FF FF FF   '........'
 (1970-01-01 05:36:04.863692)  can0  1E0107A1   [8]  00 00 00 00 00 00 00 00   '........'
 (1970-01-01 05:36:04.863954)  can0  1E0107A2   [8]  00 00 00 00 00 00 00 00   '........'
 (1970-01-01 05:36:04.864175)  can0  1E0107A3   [8]  00 00 00 00 00 00 00 00   '........'
 (1970-01-01 05:36:04.864375)  can0  1E0107A4   [8]  00 00 00 00 00 00 00 00   '........'
 (1970-01-01 05:36:04.864572)  can0  1E0107A5   [8]  00 00 00 00 00 00 00 00   '........'
 (1970-01-01 05:36:04.864816)  can0  1E0107A6   [8]  00 00 00 00 00 00 00 00   '........'
 (1970-01-01 05:36:04.865088)  can0  1E0007F4   [8]  15 15 15 15 FF FF FF FF   '........'
 (1970-01-01 05:36:04.865158)  can0  1E0007FC   [8]  15 15 15 15 15 FF FF FF   '........'
 (1970-01-01 05:36:04.865201)  can0  1E0107A7   [8]  00 00 00 00 00 00 00 00   '........'
 (1970-01-01 05:36:04.865580)  can0  1E0107A8   [8]  00 00 00 00 00 00 00 00   '........'
 (1970-01-01 05:36:04.865775)  can0  1E0107A9   [8]  00 00 00 00 00 00 00 00   '........'
 (1970-01-01 05:36:04.865976)  can0  1E0107AA   [8]  00 00 00 00 00 00 00 00   '........'
 (1970-01-01 05:36:04.866176)  can0  1E0107AB   [8]  00 00 00 00 00 00 00 00   '........'
 (1970-01-01 05:36:04.866377)  can0  1E0107AC   [8]  00 00 00 00 00 00 00 00   '........'
 (1970-01-01 05:36:04.866804)  can0  1E0107AD   [8]  00 00 00 00 00 00 00 00   '........'
 (1970-01-01 05:36:04.867098)  can0  1E0007F4   [8]  15 15 15 15 15 FF FF FF   '........'
 (1970-01-01 05:36:04.867130)  can0  1E0007FC   [8]  15 15 15 15 15 15 FF FF   '........'
 (1970-01-01 05:36:04.867175)  can0  1E0107AE   [8]  00 00 00 00 00 00 00 00   '........'
 (1970-01-01 05:36:04.867376)  can0  1E0107AF   [8]  00 00 00 00 00 00 00 00   '........'
 (1970-01-01 05:36:04.867575)  can0  1E0107B0   [8]  00 00 00 00 00 00 00 00   '........'
 (1970-01-01 05:36:04.867779)  can0  1E0107B1   [8]  00 00 00 00 00 00 00 00   '........'
 (1970-01-01 05:36:04.868073)  can0  1E0107B2   [8]  00 00 00 00 00 00 00 00   '........'
 (1970-01-01 05:36:04.868325)  can0  1E0007F4   [8]  15 15 15 15 15 15 FF FF   '........'
 (1970-01-01 05:36:04.868371)  can0  1E0007FC   [8]  15 15 15 15 15 15 15 FF   '........'
 (1970-01-01 05:36:04.868607)  can0       701   [1]  05                        '.'
 (1970-01-01 05:36:04.868487)  can0  1E0107B3   [8]  00 00 00 00 00 00 00 00   '........'
 (1970-01-01 05:36:04.868751)  can0  1E0107B4   [8]  00 00 00 00 00 00 00 00   '........'
 (1970-01-01 05:36:04.869234)  can0  1E0107B5   [8]  00 00 00 00 00 00 00 00   '........'
 (1970-01-01 05:36:04.869436)  can0  1E0107B6   [8]  00 00 00 00 00 00 00 00   '........'
 (1970-01-01 05:36:04.869634)  can0  1E0007F4   [8]  15 15 15 15 15 15 15 FF   '........'
 (1970-01-01 05:36:04.870054)  can0  1E0007FC   [8]  15 15 15 15 15 15 15 15   '........'
 (1970-01-01 05:36:04.869876)  can0  1E0107B7   [8]  00 00 00 00 00 00 00 00   '........'
 (1970-01-01 05:36:04.870188)  can0  1E0107B8   [8]  00 00 00 00 00 00 00 00   '........'
 (1970-01-01 05:36:04.870470)  can0  1E0107B9   [8]  00 00 00 00 00 00 00 00   '........'
 (1970-01-01 05:36:04.870670)  can0  1E0107BA   [8]  00 00 00 00 00 00 00 00   '........'
 (1970-01-01 05:36:04.870869)  can0  1E0107BB   [8]  00 00 00 00 00 00 00 00   '........'
 (1970-01-01 05:36:04.871073)  can0  1E0107BC   [8]  00 00 00 00 00 00 00 00   '........'
 (1970-01-01 05:36:04.871250)  can0  1E0007F4   [8]  15 15 15 15 15 15 15 15   '........'
 (1970-01-01 05:36:04.871389)  can0  1E0007FD   [8]  15 FF FF FF FF FF FF FF   '........'
 (1970-01-01 05:36:04.871505)  can0  1E0107BD   [8]  00 00 00 00 00 00 00 00   '........'
 (1970-01-01 05:36:04.871711)  can0  1E0107BE   [8]  00 00 00 00 00 00 00 00   '........'
 (1970-01-01 05:36:04.871997)  can0  1E0107BF   [8]  00 00 00 00 00 00 00 00   '........'
 (1970-01-01 05:36:04.872315)  can0  1E0107C0   [8]  00 00 00 00 00 00 00 00   '........'
 (1970-01-01 05:36:04.872510)  can0  1E0107C1   [8]  00 00 00 00 00 00 00 00   '........'
 (1970-01-01 05:36:04.872766)  can0  1E0007F5   [8]  15 FF FF FF FF FF FF FF   '........'
 (1970-01-01 05:36:04.872919)  can0  1E0007FD   [8]  15 15 FF FF FF FF FF FF   '........'
 (1970-01-01 05:36:04.872947)  can0  1E0107C2   [8]  00 00 00 00 00 00 00 00   '........'
 (1970-01-01 05:36:04.873221)  can0  1E0107C3   [8]  00 00 00 00 00 00 00 00   '........'
 (1970-01-01 05:36:04.873597)  can0  1E0107C4   [8]  00 00 00 00 00 00 00 00   '........'
 (1970-01-01 05:36:04.873798)  can0  1E0107C5   [8]  00 00 00 00 00 00 00 00   '........'
 (1970-01-01 05:36:04.873995)  can0  1E0107C6   [8]  00 00 00 00 00 00 00 00   '........'
 (1970-01-01 05:36:04.874160)  can0  1E0007F5   [8]  15 15 FF FF FF FF FF FF   '........'
 (1970-01-01 05:36:04.874302)  can0  1E0007FD   [8]  15 15 15 FF FF FF FF FF   '........'
 (1970-01-01 05:36:04.874422)  can0  1E0107C7   [8]  00 00 00 00 00 00 00 00   '........'
 (1970-01-01 05:36:04.874606)  can0  1E0107C8   [8]  00 00 00 00 00 00 00 00   '........'
 (1970-01-01 05:36:04.874806)  can0  1E0107C9   [8]  00 00 00 00 00 00 00 00   '........'
 (1970-01-01 05:36:04.875062)  can0  1E0107CA   [8]  00 00 00 00 00 00 00 00   '........'
 (1970-01-01 05:36:04.875348)  can0  1E0107CB   [8]  00 00 00 00 00 00 00 00   '........'
 (1970-01-01 05:36:04.875552)  can0  1E0107CC   [8]  00 00 00 00 00 00 00 00   '........'
 (1970-01-01 05:36:04.875776)  can0  1E0007F5   [8]  15 15 15 FF FF FF FF FF   '........'
 (1970-01-01 05:36:04.875913)  can0  1E0007FD   [8]  15 15 15 15 FF FF FF FF   '........'
 (1970-01-01 05:36:04.875978)  can0  1E0107CD   [8]  00 00 00 00 00 00 00 00   '........'
 (1970-01-01 05:36:04.876170)  can0  1E0107CE   [8]  00 00 00 00 00 00 00 00   '........'
 (1970-01-01 05:36:04.876349)  can0  1E0107CF   [8]  00 00 00 00 00 00 00 00   '........'
 (1970-01-01 05:36:04.876528)  can0  1E0107D0   [8]  00 00 00 00 00 00 00 00   '........'
 (1970-01-01 05:36:04.876923)  can0  1E0107D1   [8]  00 00 00 00 00 00 00 00   '........'
 (1970-01-01 05:36:04.877127)  can0  1E0107D2   [8]  00 00 00 00 00 00 00 00   '........'
 (1970-01-01 05:36:04.877459)  can0  1E0007F5   [8]  15 15 15 15 FF FF FF FF   '........'
 (1970-01-01 05:36:04.877504)  can0  1E0007FD   [8]  15 15 15 15 15 FF FF FF   '........'
 (1970-01-01 05:36:04.877612)  can0  1E0107D3   [8]  00 00 00 00 00 00 00 00   '........'
 (1970-01-01 05:36:04.877848)  can0  1E0107D4   [8]  00 00 00 00 00 00 00 00   '........'
 (1970-01-01 05:36:04.878046)  can0  1E0107D5   [8]  00 00 00 00 00 00 00 00   '........'
 (1970-01-01 05:36:04.878242)  can0  1E0107D6   [8]  00 00 00 00 00 00 00 00   '........'
 (1970-01-01 05:36:04.878443)  can0  1E0107D7   [8]  00 00 00 00 00 00 00 00   '........'
 (1970-01-01 05:36:04.878641)  can0  1E0107D8   [8]  00 00 00 00 00 00 00 00   '........'
 (1970-01-01 05:36:04.878838)  can0  1E0107D9   [8]  00 00 00 00 00 00 00 00   '........'
 (1970-01-01 05:36:04.879605)  can0  1E0007F5   [8]  15 15 15 15 15 FF FF FF   '........'
 (1970-01-01 05:36:04.879638)  can0  1E0007FD   [8]  15 15 15 15 15 15 FF FF   '........'
 (1970-01-01 05:36:04.879263)  can0  1E0107DA   [8]  00 00 00 00 00 00 00 00   '........'
 (1970-01-01 05:36:04.879665)  can0  1E0107DB   [8]  00 00 00 00 00 00 00 00   '........'
 (1970-01-01 05:36:04.879950)  can0  1E0107DC   [8]  00 00 00 00 00 00 00 00   '........'
 (1970-01-01 05:36:04.880148)  can0  1E0107DD   [8]  00 00 00 00 00 00 00 00   '........'
 (1970-01-01 05:36:04.880343)  can0  1E0107DE   [8]  00 00 00 00 00 00 00 00   '........'
 (1970-01-01 05:36:04.880538)  can0  1E0007F5   [8]  15 15 15 15 15 15 FF FF   '........'
 (1970-01-01 05:36:04.880683)  can0  1E0007FD   [8]  15 15 15 15 15 15 15 FF   '........'
 (1970-01-01 05:36:04.880769)  can0  1E0107DF   [8]  00 00 00 00 00 00 00 00   '........'
 (1970-01-01 05:36:04.880927)  can0       705   [1]  05                        '.'
 (1970-01-01 05:36:04.880990)  can0  1E0107E0   [8]  00 00 00 00 00 00 00 00   '........'
 (1970-01-01 05:36:04.881201)  can0  1E0107E1   [8]  00 00 00 00 00 00 00 00   '........'
 (1970-01-01 05:36:04.881378)  can0  1E0107E2   [8]  00 00 00 00 00 00 00 00   '........'
 (1970-01-01 05:36:04.881552)  can0  1E0107E3   [8]  00 00 00 00 00 00 00 00   '........'
 (1970-01-01 05:36:04.881732)  can0  1E0107E4   [8]  00 00 00 00 00 00 00 00   '........'
 (1970-01-01 05:36:04.881929)  can0  1E0107E5   [8]  00 00 00 00 00 00 00 00   '........'
 (1970-01-01 05:36:04.882075)  can0  1E0007F5   [8]  15 15 15 15 15 15 15 FF   '........'
 (1970-01-01 05:36:04.882211)  can0  1E0007FD   [8]  15 15 15 15 15 15 15 15   '........'
 (1970-01-01 05:36:04.882338)  can0  1E0107E6   [8]  00 00 00 00 00 00 00 00   '........'
 (1970-01-01 05:36:04.882515)  can0  1E0107E7   [8]  00 00 00 00 00 00 00 00   '........'
 (1970-01-01 05:36:04.882745)  can0  1E0107E8   [8]  00 00 00 00 00 00 00 00   '........'
 (1970-01-01 05:36:04.882940)  can0  1E0107E9   [8]  00 00 00 00 00 00 00 00   '........'
 (1970-01-01 05:36:04.883220)  can0  1E0107EA   [8]  00 00 00 00 00 00 00 00   '........'
 (1970-01-01 05:36:04.883458)  can0  1E0107EB   [8]  00 00 00 00 00 00 00 00   '........'
 (1970-01-01 05:36:04.883696)  can0  1E0007F5   [8]  15 15 15 15 15 15 15 15   '........'
 (1970-01-01 05:36:04.883818)  can0  1E0007FE   [8]  15 FF FF FF FF FF FF FF   '........'
 (1970-01-01 05:36:04.883954)  can0  1E0107EC   [8]  00 00 00 00 00 00 00 00   '........'
 (1970-01-01 05:36:04.884156)  can0  1E0107ED   [8]  00 00 00 00 00 00 00 00   '........'
 (1970-01-01 05:36:04.884535)  can0  1E0107EE   [8]  00 00 00 00 00 00 00 00   '........'
 (1970-01-01 05:36:04.884728)  can0  1E0107EF   [8]  00 00 00 00 00 00 00 00   '........'
 (1970-01-01 05:36:04.884942)  can0  1E0107F0   [8]  22 02 00 00 00 00 00 00   '".......'
 (1970-01-01 05:36:04.885142)  can0  1E0107F1   [8]  00 00 00 00 00 00 00 00   '........'
 (1970-01-01 05:36:04.885340)  can0  1E0107F2   [8]  00 00 00 00 00 00 00 00   '........'
 (1970-01-01 05:36:04.885558)  can0  1E0007F6   [8]  15 FF FF FF FF FF FF FF   '........'
 (1970-01-01 05:36:04.885662)  can0  1E0007FE   [8]  15 15 FF FF FF FF FF FF   '........'
 (1970-01-01 05:36:04.885781)  can0  1E0107F3   [8]  00 00 00 00 00 00 00 00   '........'
 (1970-01-01 05:36:04.885980)  can0  1E0107F4   [8]  00 00 00 00 00 00 00 00   '........'
 (1970-01-01 05:36:04.886211)  can0  1E0107F5   [8]  00 00 00 00 00 00 00 00   '........'
 (1970-01-01 05:36:04.886411)  can0  1E0107F6   [8]  00 00 00 00 00 00 00 00   '........'
 (1970-01-01 05:36:04.886618)  can0  1E0107F7   [8]  00 00 00 00 00 00 00 00   '........'
 (1970-01-01 05:36:04.886844)  can0  1E0107F8   [8]  00 00 00 00 00 00 00 00   '........'
 (1970-01-01 05:36:04.887106)  can0  1E0107F9   [8]  00 00 00 00 00 00 00 00   '........'
 (1970-01-01 05:36:04.887983)  can0  1E0007F6   [8]  15 15 FF FF FF FF FF FF   '........'
 (1970-01-01 05:36:04.888036)  can0  1E0007FE   [8]  15 15 15 FF FF FF FF FF   '........'
 (1970-01-01 05:36:04.887547)  can0  1E0107FA   [8]  00 00 00 00 00 00 00 00   '........'
 (1970-01-01 05:36:04.888047)  can0  1E0107FB   [8]  00 00 00 00 00 00 00 00   '........'
 (1970-01-01 05:36:04.888500)  can0  1E0107FC   [8]  00 00 00 00 00 00 00 00   '........'
 (1970-01-01 05:36:04.888711)  can0  1E0007F6   [8]  15 15 15 FF FF FF FF FF   '........'
 (1970-01-01 05:36:04.888860)  can0  1E0007FE   [8]  15 15 15 15 FF FF FF FF   '........'
 (1970-01-01 05:36:04.888981)  can0  1E0107FD   [8]  00 00 00 00 00 00 00 00   '........'
 (1970-01-01 05:36:04.889260)  can0  1E0107FE   [8]  00 00 00 00 00 00 00 00   '........'
 (1970-01-01 05:36:04.889503)  can0  1E0107FF   [8]  00 00 00 00 00 00 00 00   '........'
 (1970-01-01 05:36:04.889638)  can0       703   [1]  05                        '.'
 (1970-01-01 05:36:04.890018)  can0  1E0007F6   [8]  15 15 15 15 FF FF FF FF   '........'
 (1970-01-01 05:36:04.890174)  can0  1E0007FE   [8]  15 15 15 15 15 FF FF FF   '........'
 (1970-01-01 05:36:04.891238)  can0  1E0007F6   [8]  15 15 15 15 15 FF FF FF   '........'
 (1970-01-01 05:36:04.891367)  can0  1E0007FE   [8]  15 15 15 15 15 15 FF FF   '........'
 (1970-01-01 05:36:04.892475)  can0  1E0007F6   [8]  15 15 15 15 15 15 FF FF   '........'
 (1970-01-01 05:36:04.892619)  can0  1E0007FE   [8]  15 15 15 15 15 15 15 FF   '........'
 (1970-01-01 05:36:04.893695)  can0  1E0007F6   [8]  15 15 15 15 15 15 15 FF   '........'
 (1970-01-01 05:36:04.893844)  can0  1E0007FE   [8]  15 15 15 15 15 15 15 15   '........'
 (1970-01-01 05:36:04.894913)  can0  1E0007F6   [8]  15 15 15 15 15 15 15 15   '........'
 (1970-01-01 05:36:04.895057)  can0  1E0007FF   [8]  15 FF FF FF FF FF FF FF   '........'
 (1970-01-01 05:36:04.896118)  can0  1E0007F7   [8]  15 FF FF FF FF FF FF FF   '........'
 (1970-01-01 05:36:04.896245)  can0  1E0007FF   [8]  15 15 FF FF FF FF FF FF   '........'
 (1970-01-01 05:36:04.897401)  can0  1E0007F7   [8]  15 15 FF FF FF FF FF FF   '........'
 (1970-01-01 05:36:04.897483)  can0  1E0007FF   [8]  15 15 15 FF FF FF FF FF   '........'
 (1970-01-01 05:36:04.898571)  can0  1E0007F7   [8]  15 15 15 FF FF FF FF FF   '........'
 (1970-01-01 05:36:04.898657)  can0  1E0007FF   [8]  15 15 15 15 FF FF FF FF   '........'
 (1970-01-01 05:36:04.899937)  can0  1E0007F7   [8]  15 15 15 15 FF FF FF FF   '........'
 (1970-01-01 05:36:04.899987)  can0  1E0007FF   [8]  15 15 15 15 15 FF FF FF   '........'
 (1970-01-01 05:36:04.901026)  can0  1E0007F7   [8]  15 15 15 15 15 FF FF FF   '........'
 (1970-01-01 05:36:04.901105)  can0  1E0007FF   [8]  15 15 15 15 15 15 FF FF   '........'
 (1970-01-01 05:36:04.902178)  can0  1E0007F7   [8]  15 15 15 15 15 15 FF FF   '........'
 (1970-01-01 05:36:04.902362)  can0  1E0007FF   [8]  15 15 15 15 15 15 15 FF   '........'
 (1970-01-01 05:36:04.903385)  can0  1E0007F7   [8]  15 15 15 15 15 15 15 FF   '........'
 (1970-01-01 05:36:04.903508)  can0  1E0007FF   [8]  15 15 15 15 15 15 15 15   '........'
 (1970-01-01 05:36:04.904625)  can0  1E0007F7   [8]  15 15 15 15 15 15 15 15   '........'
 (1970-01-01 05:36:04.910902)  can0       707   [1]  05                        '.'
 (1970-01-01 05:36:04.913410)  can0       706   [1]  05                        '.'
 (1970-01-01 05:36:04.913620)  can0       703   [1]  05                        '.'
 (1970-01-01 05:36:04.959883)  can0       704   [1]  05                        '.'
 (1970-01-01 05:36:04.965389)  can0       703   [1]  05                        '.'
 (1970-01-01 05:36:04.968633)  can0       701   [1]  05                        '.'
 (1970-01-01 05:36:04.980657)  can0       705   [1]  05                        '.'
 (1970-01-01 05:36:04.997498)  can0  1E000700   [8]  01 00 02 00 00 00 00 00   '........'
 (1970-01-01 05:36:05.011012)  can0       707   [1]  05                        '.'
 (1970-01-01 05:36:05.013421)  can0       706   [1]  05                        '.'
 (1970-01-01 05:36:05.016373)  can0       703   [1]  05                        '.'
 (1970-01-01 05:36:05.028259)  can0  1E000700   [8]  01 00 02 00 79 00 7A 00   '....y.z.'
 (1970-01-01 05:36:05.039588)  can0       000   [2]  80 03                     '..'
 (1970-01-01 05:36:05.059528)  can0  1E0007F0   [8]  00 FF FF 15 15 15 15 15   '........'
 (1970-01-01 05:36:05.059672)  can0       704   [1]  05                        '.'
 (1970-01-01 05:36:05.060638)  can0  1E0007F0   [8]  00 00 FF 15 15 15 15 15   '........'
 (1970-01-01 05:36:05.061707)  can0  1E0007F0   [8]  00 00 00 15 15 15 15 15   '........'
 (1970-01-01 05:36:05.066880)  can0       703   [1]  05                        '.'
 (1970-01-01 05:36:05.068599)  can0       701   [1]  05                        '.'
 (1970-01-01 05:36:05.080776)  can0       705   [1]  05                        '.'
 (1970-01-01 05:36:05.085602)  can0       186   [8]  81 17 05 00 05 00 05 00   '........'
 (1970-01-01 05:36:05.110583)  can0       707   [1]  05                        '.'
 (1970-01-01 05:36:05.113561)  can0       706   [1]  05                        '.'
 (1970-01-01 05:36:05.117152)  can0       703   [1]  05                        '.'
 (1970-01-01 05:36:05.159918)  can0       704   [1]  05                        '.'
 (1970-01-01 05:36:05.167420)  can0       703   [1]  05                        '.'
 (1970-01-01 05:36:05.168679)  can0       701   [1]  05                        '.'
 (1970-01-01 05:36:05.180613)  can0       705   [1]  05                        '.'
 (1970-01-01 05:36:05.211155)  can0       707   [1]  05                        '.'
 (1970-01-01 05:36:05.213572)  can0       706   [1]  05                        '.'
 (1970-01-01 05:36:05.214786)  can0  1E0007F0   [8]  64 00 00 15 15 15 15 15   'd.......'
 (1970-01-01 05:36:05.215772)  can0  1E0007F0   [8]  64 64 00 15 15 15 15 15   'dd......'
 (1970-01-01 05:36:05.216819)  can0  1E0007F0   [8]  64 64 64 15 15 15 15 15   'ddd.....'
 (1970-01-01 05:36:05.218529)  can0       703   [1]  05                        '.'
 (1970-01-01 05:36:05.259519)  can0       704   [1]  05                        '.'
 (1970-01-01 05:36:05.268584)  can0       701   [1]  05                        '.'
 (1970-01-01 05:36:05.268966)  can0       703   [1]  05                        '.'
 (1970-01-01 05:36:05.280589)  can0       705   [1]  05                        '.'
 (1970-01-01 05:36:05.310973)  can0       707   [1]  05                        '.'
 (1970-01-01 05:36:05.313609)  can0       706   [1]  05                        '.'
 (1970-01-01 05:36:05.319244)  can0       703   [1]  05                        '.'
 (1970-01-01 05:36:05.359547)  can0       704   [1]  05                        '.'
 (1970-01-01 05:36:05.368006)  can0  1E0007F0   [8]  00 64 64 15 15 15 15 15   '.dd.....'
 (1970-01-01 05:36:05.368593)  can0       701   [1]  05                        '.'
 (1970-01-01 05:36:05.369111)  can0  1E0007F0   [8]  00 00 64 15 15 15 15 15   '..d.....'
 (1970-01-01 05:36:05.370314)  can0  1E0007F0   [8]  00 00 00 15 15 15 15 15   '........'
 (1970-01-01 05:36:05.370985)  can0       703   [1]  05                        '.'
 (1970-01-01 05:36:05.380696)  can0       705   [1]  05                        '.'
 (1970-01-01 05:36:05.410764)  can0       707   [1]  05                        '.'
 (1970-01-01 05:36:05.413476)  can0       706   [1]  05                        '.'
 (1970-01-01 05:36:05.420117)  can0       703   [1]  05                        '.'
 (1970-01-01 05:36:05.459775)  can0       704   [1]  05                        '.'
 (1970-01-01 05:36:05.468600)  can0       701   [1]  05                        '.'
 (1970-01-01 05:36:05.470405)  can0       703   [1]  05                        '.'
 (1970-01-01 05:36:05.480756)  can0       705   [1]  05                        '.'
 (1970-01-01 05:36:05.510690)  can0       707   [1]  05                        '.'
 (1970-01-01 05:36:05.513477)  can0       706   [1]  05                        '.'
 (1970-01-01 05:36:05.520474)  can0  1E0007F0   [8]  64 00 00 15 15 15 15 15   'd.......'
 (1970-01-01 05:36:05.521537)  can0  1E0007F0   [8]  64 64 00 15 15 15 15 15   'dd......'
 (1970-01-01 05:36:05.522669)  can0  1E0007F0   [8]  64 64 64 15 15 15 15 15   'ddd.....'
 (1970-01-01 05:36:05.524219)  can0       703   [1]  05                        '.'
 (1970-01-01 05:36:05.559438)  can0       704   [1]  05                        '.'
 (1970-01-01 05:36:05.568657)  can0       701   [1]  05                        '.'
 (1970-01-01 05:36:05.575112)  can0       703   [1]  05                        '.'
 (1970-01-01 05:36:05.580584)  can0       705   [1]  05                        '.'
 (1970-01-01 05:36:05.586254)  can0       186   [8]  82 17 05 00 05 00 05 00   '........'
 (1970-01-01 05:36:05.610641)  can0       707   [1]  05                        '.'
 (1970-01-01 05:36:05.613612)  can0       706   [1]  05                        '.'
 (1970-01-01 05:36:05.625394)  can0       703   [1]  05                        '.'
 (1970-01-01 05:36:05.659603)  can0       704   [1]  05                        '.'
 (1970-01-01 05:36:05.668597)  can0       701   [1]  05                        '.'
 (1970-01-01 05:36:05.672812)  can0  1E0007F0   [8]  00 64 64 15 15 15 15 15   '.dd.....'
 (1970-01-01 05:36:05.674388)  can0  1E0007F0   [8]  00 00 64 15 15 15 15 15   '..d.....'
 (1970-01-01 05:36:05.675078)  can0  1E0007F0   [8]  00 00 00 15 15 15 15 15   '........'
 (1970-01-01 05:36:05.675761)  can0       703   [1]  05                        '.'
 (1970-01-01 05:36:05.680550)  can0       705   [1]  05                        '.'
 (1970-01-01 05:36:05.711018)  can0       707   [1]  05                        '.'
 (1970-01-01 05:36:05.713502)  can0       706   [1]  05                        '.'
 (1970-01-01 05:36:05.726012)  can0       703   [1]  05                        '.'
 (1970-01-01 05:36:05.759467)  can0       704   [1]  05                        '.'
 (1970-01-01 05:36:05.768565)  can0       701   [1]  05                        '.'
 (1970-01-01 05:36:05.776391)  can0       703   [1]  05                        '.'
 (1970-01-01 05:36:05.780680)  can0       705   [1]  05                        '.'
 (1970-01-01 05:36:05.810969)  can0       707   [1]  05                        '.'
 (1970-01-01 05:36:05.813514)  can0       706   [1]  05                        '.'
 (1970-01-01 05:36:05.825194)  can0  1E0007F0   [8]  64 00 00 15 15 15 15 15   'd.......'
 (1970-01-01 05:36:05.826346)  can0  1E0007F0   [8]  64 64 00 15 15 15 15 15   'dd......'
 (1970-01-01 05:36:05.827368)  can0  1E0007F0   [8]  64 64 64 15 15 15 15 15   'ddd.....'
 (1970-01-01 05:36:05.827303)  can0       703   [1]  05                        '.'
 (1970-01-01 05:36:05.859435)  can0       704   [1]  05                        '.'
 (1970-01-01 05:36:05.868567)  can0       701   [1]  05                        '.'
 (1970-01-01 05:36:05.877474)  can0       703   [1]  05                        '.'
 (1970-01-01 05:36:05.880497)  can0       705   [1]  05                        '.'
 (1970-01-01 05:36:05.910975)  can0       707   [1]  05                        '.'
 (1970-01-01 05:36:05.913521)  can0       706   [1]  05                        '.'
 (1970-01-01 05:36:05.927750)  can0       703   [1]  05                        '.'
 (1970-01-01 05:36:05.959694)  can0       704   [1]  05                        '.'
 (1970-01-01 05:36:05.968580)  can0       701   [1]  05                        '.'
 (1970-01-01 05:36:05.978088)  can0       703   [1]  05                        '.'
 (1970-01-01 05:36:05.978572)  can0  1E0007F0   [8]  00 64 64 15 15 15 15 15   '.dd.....'
 (1970-01-01 05:36:05.979443)  can0  1E0007F0   [8]  00 00 64 15 15 15 15 15   '..d.....'
 (1970-01-01 05:36:05.980518)  can0  1E0007F0   [8]  00 00 00 15 15 15 15 15   '........'
 (1970-01-01 05:36:05.980625)  can0       705   [1]  05                        '.'
 (1970-01-01 05:36:06.011328)  can0       707   [1]  05                        '.'
 (1970-01-01 05:36:06.013536)  can0       706   [1]  05                        '.'
 (1970-01-01 05:36:06.028364)  can0       703   [1]  05                        '.'
 (1970-01-01 05:36:06.059526)  can0       704   [1]  05                        '.'
 (1970-01-01 05:36:06.068589)  can0       701   [1]  05                        '.'
 (1970-01-01 05:36:06.078644)  can0       703   [1]  05                        '.'
 (1970-01-01 05:36:06.080527)  can0       705   [1]  05                        '.'
 (1970-01-01 05:36:06.086210)  can0       186   [8]  83 17 05 00 05 00 05 00   '........'
 (1970-01-01 05:36:06.111095)  can0       707   [1]  05                        '.'
 (1970-01-01 05:36:06.113557)  can0       706   [1]  05                        '.'
 (1970-01-01 05:36:06.128928)  can0       703   [1]  05                        '.'
 (1970-01-01 05:36:06.135304)  can0  1E0007F0   [8]  64 00 00 15 15 15 15 15   'd.......'
 (1970-01-01 05:36:06.136358)  can0  1E0007F0   [8]  64 64 00 15 15 15 15 15   'dd......'
 (1970-01-01 05:36:06.137416)  can0  1E0007F0   [8]  64 64 64 15 15 15 15 15   'ddd.....'
 (1970-01-01 05:36:06.159758)  can0       704   [1]  05                        '.'
 (1970-01-01 05:36:06.168602)  can0       701   [1]  05                        '.'
 (1970-01-01 05:36:06.179242)  can0       703   [1]  05                        '.'
 (1970-01-01 05:36:06.180698)  can0       705   [1]  05                        '.'
 (1970-01-01 05:36:06.211185)  can0       707   [1]  05                        '.'
 (1970-01-01 05:36:06.213556)  can0       706   [1]  05                        '.'
 (1970-01-01 05:36:06.229500)  can0       703   [1]  05                        '.'
 (1970-01-01 05:36:06.259405)  can0       704   [1]  05                        '.'
 (1970-01-01 05:36:06.268545)  can0       701   [1]  05                        '.'
 (1970-01-01 05:36:06.279762)  can0       703   [1]  05                        '.'
 (1970-01-01 05:36:06.280550)  can0       705   [1]  05                        '.'
 (1970-01-01 05:36:06.291135)  can0  1E0007F0   [8]  00 64 64 15 15 15 15 15   '.dd.....'
 (1970-01-01 05:36:06.292192)  can0  1E0007F0   [8]  00 00 64 15 15 15 15 15   '..d.....'
 (1970-01-01 05:36:06.293278)  can0  1E0007F0   [8]  00 00 00 15 15 15 15 15   '........'
 (1970-01-01 05:36:06.310514)  can0       707   [1]  05                        '.'
 (1970-01-01 05:36:06.313570)  can0       706   [1]  05                        '.'
 (1970-01-01 05:36:06.330113)  can0       703   [1]  05                        '.'
 (1970-01-01 05:36:06.359595)  can0       704   [1]  05                        '.'
 (1970-01-01 05:36:06.368536)  can0       701   [1]  05                        '.'
 (1970-01-01 05:36:06.380418)  can0       703   [1]  05                        '.'
 (1970-01-01 05:36:06.380706)  can0       705   [1]  05                        '.'
 (1970-01-01 05:36:06.410969)  can0       707   [1]  05                        '.'
 (1970-01-01 05:36:06.413575)  can0       706   [1]  05                        '.'
 (1970-01-01 05:36:06.430682)  can0       703   [1]  05                        '.'
 (1970-01-01 05:36:06.444182)  can0  1E0007F0   [8]  64 00 00 15 15 15 15 15   'd.......'
 (1970-01-01 05:36:06.445262)  can0  1E0007F0   [8]  64 64 00 15 15 15 15 15   'dd......'
 (1970-01-01 05:36:06.446372)  can0  1E0007F0   [8]  64 64 64 15 15 15 15 15   'ddd.....'
 (1970-01-01 05:36:06.459869)  can0       704   [1]  05                        '.'
 (1970-01-01 05:36:06.468531)  can0       701   [1]  05                        '.'
 (1970-01-01 05:36:06.480725)  can0       705   [1]  05                        '.'
 (1970-01-01 05:36:06.483747)  can0       703   [1]  05                        '.'
 (1970-01-01 05:36:06.510616)  can0       707   [1]  05                        '.'
 (1970-01-01 05:36:06.513643)  can0       706   [1]  05                        '.'
 (1970-01-01 05:36:06.541985)  can0       703   [1]  05                        '.'
 (1970-01-01 05:36:06.559452)  can0       704   [1]  05                        '.'
 (1970-01-01 05:36:06.568532)  can0       701   [1]  05                        '.'
 (1970-01-01 05:36:06.580695)  can0       705   [1]  05                        '.'
 (1970-01-01 05:36:06.586243)  can0       186   [8]  82 17 05 00 05 00 05 00   '........'
 (1970-01-01 05:36:06.592243)  can0       703   [1]  05                        '.'
 (1970-01-01 05:36:06.596925)  can0  1E0007F0   [8]  00 64 64 15 15 15 15 15   '.dd.....'
 (1970-01-01 05:36:06.598182)  can0  1E0007F0   [8]  00 00 64 15 15 15 15 15   '..d.....'
 (1970-01-01 05:36:06.599068)  can0  1E0007F0   [8]  00 00 00 15 15 15 15 15   '........'
 (1970-01-01 05:36:06.610831)  can0       707   [1]  05                        '.'
 (1970-01-01 05:36:06.613599)  can0       706   [1]  05                        '.'
 (1970-01-01 05:36:06.642532)  can0       703   [1]  05                        '.'
 (1970-01-01 05:36:06.659653)  can0       704   [1]  05                        '.'
 (1970-01-01 05:36:06.668529)  can0       701   [1]  05                        '.'
 (1970-01-01 05:36:06.680811)  can0       705   [1]  05                        '.'
 (1970-01-01 05:36:06.692790)  can0       703   [1]  05                        '.'
 (1970-01-01 05:36:06.710521)  can0       707   [1]  05                        '.'
 (1970-01-01 05:36:06.713609)  can0       706   [1]  05                        '.'
 (1970-01-01 05:36:06.743057)  can0       703   [1]  05                        '.'
 (1970-01-01 05:36:06.754493)  can0  1E0007F0   [8]  64 00 00 15 15 15 15 15   'd.......'
 (1970-01-01 05:36:06.755521)  can0  1E0007F0   [8]  64 64 00 15 15 15 15 15   'dd......'
 (1970-01-01 05:36:06.756603)  can0  1E0007F0   [8]  64 64 64 15 15 15 15 15   'ddd.....'
 (1970-01-01 05:36:06.759504)  can0       704   [1]  05                        '.'
 (1970-01-01 05:36:06.768536)  can0       701   [1]  05                        '.'
 (1970-01-01 05:36:06.780644)  can0       705   [1]  05                        '.'
 (1970-01-01 05:36:06.793575)  can0       703   [1]  05                        '.'
 (1970-01-01 05:36:06.810795)  can0       707   [1]  05                        '.'
 (1970-01-01 05:36:06.813623)  can0       706   [1]  05                        '.'
 (1970-01-01 05:36:06.844044)  can0       703   [1]  05                        '.'
 (1970-01-01 05:36:06.859367)  can0       704   [1]  05                        '.'
 (1970-01-01 05:36:06.868517)  can0       701   [1]  05                        '.'
 (1970-01-01 05:36:06.880617)  can0       705   [1]  05                        '.'
 (1970-01-01 05:36:06.894321)  can0       703   [1]  05                        '.'
 (1970-01-01 05:36:06.907860)  can0  1E0007F0   [8]  00 64 64 15 15 15 15 15   '.dd.....'
 (1970-01-01 05:36:06.909077)  can0  1E0007F0   [8]  00 00 64 15 15 15 15 15   '..d.....'
 (1970-01-01 05:36:06.910333)  can0  1E0007F0   [8]  00 00 00 15 15 15 15 15   '........'
 (1970-01-01 05:36:06.910513)  can0       707   [1]  05                        '.'
 (1970-01-01 05:36:06.913628)  can0       706   [1]  05                        '.'
 (1970-01-01 05:36:06.944587)  can0       703   [1]  05                        '.'
 (1970-01-01 05:36:06.959515)  can0       704   [1]  05                        '.'
 (1970-01-01 05:36:06.968512)  can0       701   [1]  05                        '.'
 (1970-01-01 05:36:06.980661)  can0       705   [1]  05                        '.'
 (1970-01-01 05:36:06.994855)  can0       703   [1]  05                        '.'
 (1970-01-01 05:36:07.010595)  can0       707   [1]  05                        '.'
 (1970-01-01 05:36:07.013641)  can0       706   [1]  05                        '.'
